hour, t(sec), V1, VAngle1, V2, VAngle2, V3, VAngle3, I1, IAngle1, I2, IAngle2, I3, IAngle3
0, 60.00000, 2704.47, -4.16536, 2813.73, -123.838, 2773.6, 114.075, 176.053, -30.0401, 126.774, -164.907, 124.803, 103.911
0, 120.00000, 2704.44, -4.16579, 2813.71, -123.838, 2773.59, 114.074, 176.07, -30.0402, 126.785, -164.908, 124.814, 103.911
0, 180.00000, 2704.44, -4.1658, 2813.71, -123.838, 2773.59, 114.074, 176.07, -30.0402, 126.785, -164.908, 124.814, 103.911
0, 240.00000, 2704.44, -4.1658, 2813.71, -123.838, 2773.59, 114.074, 176.07, -30.0402, 126.785, -164.908, 124.814, 103.911
0, 300.00000, 2704.44, -4.1658, 2813.71, -123.838, 2773.59, 114.074, 176.07, -30.0402, 126.785, -164.908, 124.814, 103.911
0, 360.00000, 2704.44, -4.1658, 2813.71, -123.838, 2773.59, 114.074, 176.07, -30.0402, 126.785, -164.908, 124.814, 103.911
0, 420.00000, 2704.44, -4.1658, 2813.71, -123.838, 2773.59, 114.074, 176.07, -30.0402, 126.785, -164.908, 124.814, 103.911
0, 480.00000, 2704.44, -4.1658, 2813.71, -123.838, 2773.59, 114.074, 176.07, -30.0402, 126.785, -164.908, 124.814, 103.911
0, 540.00000, 2704.44, -4.1658, 2813.71, -123.838, 2773.59, 114.074, 176.07, -30.0402, 126.785, -164.908, 124.814, 103.911
0, 600.00000, 2704.44, -4.1658, 2813.71, -123.838, 2773.59, 114.074, 176.07, -30.0402, 126.785, -164.908, 124.814, 103.911
0, 660.00000, 2704.44, -4.1658, 2813.71, -123.838, 2773.59, 114.074, 176.07, -30.0402, 126.785, -164.908, 124.814, 103.911
0, 720.00000, 2704.44, -4.1658, 2813.71, -123.838, 2773.59, 114.074, 176.07, -30.0402, 126.785, -164.908, 124.814, 103.911
0, 780.00000, 2704.44, -4.1658, 2813.71, -123.838, 2773.59, 114.074, 176.07, -30.0402, 126.785, -164.908, 124.814, 103.911
0, 840.00000, 2704.44, -4.1658, 2813.71, -123.838, 2773.59, 114.074, 176.07, -30.0402, 126.785, -164.908, 124.814, 103.911
0, 900.00000, 2704.44, -4.1658, 2813.71, -123.838, 2773.59, 114.074, 176.07, -30.0402, 126.785, -164.908, 124.814, 103.911
0, 960.00000, 2704.44, -4.1658, 2813.71, -123.838, 2773.59, 114.074, 176.07, -30.0402, 126.785, -164.908, 124.814, 103.911
0, 1020.00000, 2704.44, -4.1658, 2813.71, -123.838, 2773.59, 114.074, 176.07, -30.0402, 126.785, -164.908, 124.814, 103.911
0, 1080.00000, 2704.44, -4.1658, 2813.71, -123.838, 2773.59, 114.074, 176.07, -30.0402, 126.785, -164.908, 124.814, 103.911
0, 1140.00000, 2704.44, -4.1658, 2813.71, -123.838, 2773.59, 114.074, 176.07, -30.0402, 126.785, -164.908, 124.814, 103.911
0, 1200.00000, 2704.44, -4.1658, 2813.71, -123.838, 2773.59, 114.074, 176.07, -30.0402, 126.785, -164.908, 124.814, 103.911
0, 1260.00000, 2704.44, -4.1658, 2813.71, -123.838, 2773.59, 114.074, 176.07, -30.0402, 126.785, -164.908, 124.814, 103.911
0, 1320.00000, 2704.44, -4.1658, 2813.71, -123.838, 2773.59, 114.074, 176.07, -30.0402, 126.785, -164.908, 124.814, 103.911
0, 1380.00000, 2704.44, -4.1658, 2813.71, -123.838, 2773.59, 114.074, 176.07, -30.0402, 126.785, -164.908, 124.814, 103.911
0, 1440.00000, 2704.44, -4.1658, 2813.71, -123.838, 2773.59, 114.074, 176.07, -30.0402, 126.785, -164.908, 124.814, 103.911
0, 1500.00000, 2704.44, -4.1658, 2813.71, -123.838, 2773.59, 114.074, 176.07, -30.0402, 126.785, -164.908, 124.814, 103.911
0, 1560.00000, 2704.44, -4.1658, 2813.71, -123.838, 2773.59, 114.074, 176.07, -30.0402, 126.785, -164.908, 124.814, 103.911
0, 1620.00000, 2704.44, -4.1658, 2813.71, -123.838, 2773.59, 114.074, 176.07, -30.0402, 126.785, -164.908, 124.814, 103.911
0, 1680.00000, 2704.44, -4.1658, 2813.71, -123.838, 2773.59, 114.074, 176.07, -30.0402, 126.785, -164.908, 124.814, 103.911
0, 1740.00000, 2704.44, -4.1658, 2813.71, -123.838, 2773.59, 114.074, 176.07, -30.0402, 126.785, -164.908, 124.814, 103.911
0, 1800.00000, 2704.44, -4.1658, 2813.71, -123.838, 2773.59, 114.074, 176.07, -30.0402, 126.785, -164.908, 124.814, 103.911
0, 1860.00000, 2728.77, -3.86643, 2828.64, -123.598, 2790.55, 114.521, 164.326, -29.7257, 118.266, -164.683, 116.303, 104.255
0, 1920.00000, 2728.78, -3.86627, 2828.65, -123.598, 2790.55, 114.522, 164.32, -29.7257, 118.262, -164.683, 116.299, 104.254
0, 1980.00000, 2728.78, -3.86626, 2828.65, -123.598, 2790.55, 114.522, 164.32, -29.7257, 118.262, -164.683, 116.299, 104.254
0, 2040.00000, 2728.78, -3.86626, 2828.65, -123.598, 2790.55, 114.522, 164.32, -29.7257, 118.262, -164.683, 116.299, 104.254
0, 2100.00000, 2728.78, -3.86626, 2828.65, -123.598, 2790.55, 114.522, 164.32, -29.7257, 118.262, -164.683, 116.299, 104.254
0, 2160.00000, 2728.78, -3.86626, 2828.65, -123.598, 2790.55, 114.522, 164.32, -29.7257, 118.262, -164.683, 116.299, 104.254
0, 2220.00000, 2728.78, -3.86626, 2828.65, -123.598, 2790.55, 114.522, 164.32, -29.7257, 118.262, -164.683, 116.299, 104.254
0, 2280.00000, 2728.78, -3.86626, 2828.65, -123.598, 2790.55, 114.522, 164.32, -29.7257, 118.262, -164.683, 116.299, 104.254
0, 2340.00000, 2728.78, -3.86626, 2828.65, -123.598, 2790.55, 114.522, 164.32, -29.7257, 118.262, -164.683, 116.299, 104.254
0, 2400.00000, 2728.78, -3.86626, 2828.65, -123.598, 2790.55, 114.522, 164.32, -29.7257, 118.262, -164.683, 116.299, 104.254
0, 2460.00000, 2728.78, -3.86626, 2828.65, -123.598, 2790.55, 114.522, 164.32, -29.7257, 118.262, -164.683, 116.299, 104.254
0, 2520.00000, 2728.78, -3.86626, 2828.65, -123.598, 2790.55, 114.522, 164.32, -29.7257, 118.262, -164.683, 116.299, 104.254
0, 2580.00000, 2728.78, -3.86626, 2828.65, -123.598, 2790.55, 114.522, 164.32, -29.7257, 118.262, -164.683, 116.299, 104.254
0, 2640.00000, 2728.78, -3.86626, 2828.65, -123.598, 2790.55, 114.522, 164.32, -29.7257, 118.262, -164.683, 116.299, 104.254
0, 2700.00000, 2728.78, -3.86626, 2828.65, -123.598, 2790.55, 114.522, 164.32, -29.7257, 118.262, -164.683, 116.299, 104.254
0, 2760.00000, 2728.78, -3.86626, 2828.65, -123.598, 2790.55, 114.522, 164.32, -29.7257, 118.262, -164.683, 116.299, 104.254
0, 2820.00000, 2728.78, -3.86626, 2828.65, -123.598, 2790.55, 114.522, 164.32, -29.7257, 118.262, -164.683, 116.299, 104.254
0, 2880.00000, 2728.78, -3.86626, 2828.65, -123.598, 2790.55, 114.522, 164.32, -29.7257, 118.262, -164.683, 116.299, 104.254
0, 2940.00000, 2728.78, -3.86626, 2828.65, -123.598, 2790.55, 114.522, 164.32, -29.7257, 118.262, -164.683, 116.299, 104.254
0, 3000.00000, 2728.78, -3.86626, 2828.65, -123.598, 2790.55, 114.522, 164.32, -29.7257, 118.262, -164.683, 116.299, 104.254
0, 3060.00000, 2728.78, -3.86626, 2828.65, -123.598, 2790.55, 114.522, 164.32, -29.7257, 118.262, -164.683, 116.299, 104.254
0, 3120.00000, 2728.78, -3.86626, 2828.65, -123.598, 2790.55, 114.522, 164.32, -29.7257, 118.262, -164.683, 116.299, 104.254
0, 3180.00000, 2728.78, -3.86626, 2828.65, -123.598, 2790.55, 114.522, 164.32, -29.7257, 118.262, -164.683, 116.299, 104.254
0, 3240.00000, 2728.78, -3.86626, 2828.65, -123.598, 2790.55, 114.522, 164.32, -29.7257, 118.262, -164.683, 116.299, 104.254
0, 3300.00000, 2728.78, -3.86626, 2828.65, -123.598, 2790.55, 114.522, 164.32, -29.7257, 118.262, -164.683, 116.299, 104.254
0, 3360.00000, 2728.78, -3.86626, 2828.65, -123.598, 2790.55, 114.522, 164.32, -29.7257, 118.262, -164.683, 116.299, 104.254
0, 3420.00000, 2728.78, -3.86626, 2828.65, -123.598, 2790.55, 114.522, 164.32, -29.7257, 118.262, -164.683, 116.299, 104.254
0, 3480.00000, 2728.78, -3.86626, 2828.65, -123.598, 2790.55, 114.522, 164.32, -29.7257, 118.262, -164.683, 116.299, 104.254
0, 3540.00000, 2728.78, -3.86626, 2828.65, -123.598, 2790.55, 114.522, 164.32, -29.7257, 118.262, -164.683, 116.299, 104.254
1, 0.00000, 2728.78, -3.86626, 2828.65, -123.598, 2790.55, 114.522, 164.32, -29.7257, 118.262, -164.683, 116.299, 104.254
1, 60.00000, 2728.78, -3.86626, 2828.65, -123.598, 2790.55, 114.522, 164.32, -29.7257, 118.262, -164.683, 116.299, 104.254
1, 120.00000, 2728.78, -3.86626, 2828.65, -123.598, 2790.55, 114.522, 164.32, -29.7257, 118.262, -164.683, 116.299, 104.254
1, 180.00000, 2728.78, -3.86626, 2828.65, -123.598, 2790.55, 114.522, 164.32, -29.7257, 118.262, -164.683, 116.299, 104.254
1, 240.00000, 2728.78, -3.86626, 2828.65, -123.598, 2790.55, 114.522, 164.32, -29.7257, 118.262, -164.683, 116.299, 104.254
1, 300.00000, 2728.78, -3.86626, 2828.65, -123.598, 2790.55, 114.522, 164.32, -29.7257, 118.262, -164.683, 116.299, 104.254
1, 360.00000, 2728.78, -3.86626, 2828.65, -123.598, 2790.55, 114.522, 164.32, -29.7257, 118.262, -164.683, 116.299, 104.254
1, 420.00000, 2728.78, -3.86626, 2828.65, -123.598, 2790.55, 114.522, 164.32, -29.7257, 118.262, -164.683, 116.299, 104.254
1, 480.00000, 2728.78, -3.86626, 2828.65, -123.598, 2790.55, 114.522, 164.32, -29.7257, 118.262, -164.683, 116.299, 104.254
1, 540.00000, 2728.78, -3.86626, 2828.65, -123.598, 2790.55, 114.522, 164.32, -29.7257, 118.262, -164.683, 116.299, 104.254
1, 600.00000, 2728.78, -3.86626, 2828.65, -123.598, 2790.55, 114.522, 164.32, -29.7257, 118.262, -164.683, 116.299, 104.254
1, 660.00000, 2728.78, -3.86626, 2828.65, -123.598, 2790.55, 114.522, 164.32, -29.7257, 118.262, -164.683, 116.299, 104.254
1, 720.00000, 2728.78, -3.86626, 2828.65, -123.598, 2790.55, 114.522, 164.32, -29.7257, 118.262, -164.683, 116.299, 104.254
1, 780.00000, 2728.78, -3.86626, 2828.65, -123.598, 2790.55, 114.522, 164.32, -29.7257, 118.262, -164.683, 116.299, 104.254
1, 840.00000, 2728.78, -3.86626, 2828.65, -123.598, 2790.55, 114.522, 164.32, -29.7257, 118.262, -164.683, 116.299, 104.254
1, 900.00000, 2728.78, -3.86626, 2828.65, -123.598, 2790.55, 114.522, 164.32, -29.7257, 118.262, -164.683, 116.299, 104.254
1, 960.00000, 2728.78, -3.86626, 2828.65, -123.598, 2790.55, 114.522, 164.32, -29.7257, 118.262, -164.683, 116.299, 104.254
1, 1020.00000, 2728.78, -3.86626, 2828.65, -123.598, 2790.55, 114.522, 164.32, -29.7257, 118.262, -164.683, 116.299, 104.254
1, 1080.00000, 2728.78, -3.86626, 2828.65, -123.598, 2790.55, 114.522, 164.32, -29.7257, 118.262, -164.683, 116.299, 104.254
1, 1140.00000, 2728.78, -3.86626, 2828.65, -123.598, 2790.55, 114.522, 164.32, -29.7257, 118.262, -164.683, 116.299, 104.254
1, 1200.00000, 2728.78, -3.86626, 2828.65, -123.598, 2790.55, 114.522, 164.32, -29.7257, 118.262, -164.683, 116.299, 104.254
1, 1260.00000, 2728.78, -3.86626, 2828.65, -123.598, 2790.55, 114.522, 164.32, -29.7257, 118.262, -164.683, 116.299, 104.254
1, 1320.00000, 2728.78, -3.86626, 2828.65, -123.598, 2790.55, 114.522, 164.32, -29.7257, 118.262, -164.683, 116.299, 104.254
1, 1380.00000, 2728.78, -3.86626, 2828.65, -123.598, 2790.55, 114.522, 164.32, -29.7257, 118.262, -164.683, 116.299, 104.254
1, 1440.00000, 2728.78, -3.86626, 2828.65, -123.598, 2790.55, 114.522, 164.32, -29.7257, 118.262, -164.683, 116.299, 104.254
1, 1500.00000, 2728.78, -3.86626, 2828.65, -123.598, 2790.55, 114.522, 164.32, -29.7257, 118.262, -164.683, 116.299, 104.254
1, 1560.00000, 2728.78, -3.86626, 2828.65, -123.598, 2790.55, 114.522, 164.32, -29.7257, 118.262, -164.683, 116.299, 104.254
1, 1620.00000, 2728.78, -3.86626, 2828.65, -123.598, 2790.55, 114.522, 164.32, -29.7257, 118.262, -164.683, 116.299, 104.254
1, 1680.00000, 2728.78, -3.86626, 2828.65, -123.598, 2790.55, 114.522, 164.32, -29.7257, 118.262, -164.683, 116.299, 104.254
1, 1740.00000, 2728.78, -3.86626, 2828.65, -123.598, 2790.55, 114.522, 164.32, -29.7257, 118.262, -164.683, 116.299, 104.254
1, 1800.00000, 2740.82, -3.71696, 2836.06, -123.479, 2798.94, 114.743, 158.472, -29.5696, 114.023, -164.57, 112.074, 104.425
1, 1860.00000, 2740.82, -3.71688, 2836.06, -123.479, 2798.94, 114.743, 158.469, -29.5697, 114.021, -164.57, 112.072, 104.425
1, 1920.00000, 2740.82, -3.71688, 2836.06, -123.479, 2798.94, 114.743, 158.469, -29.5697, 114.021, -164.57, 112.072, 104.425
1, 1980.00000, 2740.82, -3.71688, 2836.06, -123.479, 2798.94, 114.743, 158.469, -29.5697, 114.021, -164.57, 112.072, 104.425
1, 2040.00000, 2740.82, -3.71688, 2836.06, -123.479, 2798.94, 114.743, 158.469, -29.5697, 114.021, -164.57, 112.072, 104.425
1, 2100.00000, 2740.82, -3.71688, 2836.06, -123.479, 2798.94, 114.743, 158.469, -29.5697, 114.021, -164.57, 112.072, 104.425
1, 2160.00000, 2740.82, -3.71688, 2836.06, -123.479, 2798.94, 114.743, 158.469, -29.5697, 114.021, -164.57, 112.072, 104.425
1, 2220.00000, 2740.82, -3.71688, 2836.06, -123.479, 2798.94, 114.743, 158.469, -29.5697, 114.021, -164.57, 112.072, 104.425
1, 2280.00000, 2740.82, -3.71688, 2836.06, -123.479, 2798.94, 114.743, 158.469, -29.5697, 114.021, -164.57, 112.072, 104.425
1, 2340.00000, 2740.82, -3.71688, 2836.06, -123.479, 2798.94, 114.743, 158.469, -29.5697, 114.021, -164.57, 112.072, 104.425
1, 2400.00000, 2740.82, -3.71688, 2836.06, -123.479, 2798.94, 114.743, 158.469, -29.5697, 114.021, -164.57, 112.072, 104.425
1, 2460.00000, 2740.82, -3.71688, 2836.06, -123.479, 2798.94, 114.743, 158.469, -29.5697, 114.021, -164.57, 112.072, 104.425
1, 2520.00000, 2740.82, -3.71688, 2836.06, -123.479, 2798.94, 114.743, 158.469, -29.5697, 114.021, -164.57, 112.072, 104.425
1, 2580.00000, 2740.82, -3.71688, 2836.06, -123.479, 2798.94, 114.743, 158.469, -29.5697, 114.021, -164.57, 112.072, 104.425
1, 2640.00000, 2740.82, -3.71688, 2836.06, -123.479, 2798.94, 114.743, 158.469, -29.5697, 114.021, -164.57, 112.072, 104.425
1, 2700.00000, 2740.82, -3.71688, 2836.06, -123.479, 2798.94, 114.743, 158.469, -29.5697, 114.021, -164.57, 112.072, 104.425
1, 2760.00000, 2740.82, -3.71688, 2836.06, -123.479, 2798.94, 114.743, 158.469, -29.5697, 114.021, -164.57, 112.072, 104.425
1, 2820.00000, 2740.82, -3.71688, 2836.06, -123.479, 2798.94, 114.743, 158.469, -29.5697, 114.021, -164.57, 112.072, 104.425
1, 2880.00000, 2740.82, -3.71688, 2836.06, -123.479, 2798.94, 114.743, 158.469, -29.5697, 114.021, -164.57, 112.072, 104.425
1, 2940.00000, 2740.82, -3.71688, 2836.06, -123.479, 2798.94, 114.743, 158.469, -29.5697, 114.021, -164.57, 112.072, 104.425
1, 3000.00000, 2740.82, -3.71688, 2836.06, -123.479, 2798.94, 114.743, 158.469, -29.5697, 114.021, -164.57, 112.072, 104.425
1, 3060.00000, 2740.82, -3.71688, 2836.06, -123.479, 2798.94, 114.743, 158.469, -29.5697, 114.021, -164.57, 112.072, 104.425
1, 3120.00000, 2740.82, -3.71688, 2836.06, -123.479, 2798.94, 114.743, 158.469, -29.5697, 114.021, -164.57, 112.072, 104.425
1, 3180.00000, 2740.82, -3.71688, 2836.06, -123.479, 2798.94, 114.743, 158.469, -29.5697, 114.021, -164.57, 112.072, 104.425
1, 3240.00000, 2740.82, -3.71688, 2836.06, -123.479, 2798.94, 114.743, 158.469, -29.5697, 114.021, -164.57, 112.072, 104.425
1, 3300.00000, 2740.82, -3.71688, 2836.06, -123.479, 2798.94, 114.743, 158.469, -29.5697, 114.021, -164.57, 112.072, 104.425
1, 3360.00000, 2740.82, -3.71688, 2836.06, -123.479, 2798.94, 114.743, 158.469, -29.5697, 114.021, -164.57, 112.072, 104.425
1, 3420.00000, 2740.82, -3.71688, 2836.06, -123.479, 2798.94, 114.743, 158.469, -29.5697, 114.021, -164.57, 112.072, 104.425
1, 3480.00000, 2740.82, -3.71688, 2836.06, -123.479, 2798.94, 114.743, 158.469, -29.5697, 114.021, -164.57, 112.072, 104.425
1, 3540.00000, 2740.82, -3.71688, 2836.06, -123.479, 2798.94, 114.743, 158.469, -29.5697, 114.021, -164.57, 112.072, 104.425
2, 0.00000, 2740.82, -3.71688, 2836.06, -123.479, 2798.94, 114.743, 158.469, -29.5697, 114.021, -164.57, 112.072, 104.425
2, 60.00000, 2740.82, -3.71688, 2836.06, -123.479, 2798.94, 114.743, 158.469, -29.5697, 114.021, -164.57, 112.072, 104.425
2, 120.00000, 2740.82, -3.71688, 2836.06, -123.479, 2798.94, 114.743, 158.469, -29.5697, 114.021, -164.57, 112.072, 104.425
2, 180.00000, 2740.82, -3.71688, 2836.06, -123.479, 2798.94, 114.743, 158.469, -29.5697, 114.021, -164.57, 112.072, 104.425
2, 240.00000, 2740.82, -3.71688, 2836.06, -123.479, 2798.94, 114.743, 158.469, -29.5697, 114.021, -164.57, 112.072, 104.425
2, 300.00000, 2740.82, -3.71688, 2836.06, -123.479, 2798.94, 114.743, 158.469, -29.5697, 114.021, -164.57, 112.072, 104.425
2, 360.00000, 2740.82, -3.71688, 2836.06, -123.479, 2798.94, 114.743, 158.469, -29.5697, 114.021, -164.57, 112.072, 104.425
2, 420.00000, 2740.82, -3.71688, 2836.06, -123.479, 2798.94, 114.743, 158.469, -29.5697, 114.021, -164.57, 112.072, 104.425
2, 480.00000, 2740.82, -3.71688, 2836.06, -123.479, 2798.94, 114.743, 158.469, -29.5697, 114.021, -164.57, 112.072, 104.425
2, 540.00000, 2740.82, -3.71688, 2836.06, -123.479, 2798.94, 114.743, 158.469, -29.5697, 114.021, -164.57, 112.072, 104.425
2, 600.00000, 2740.82, -3.71688, 2836.06, -123.479, 2798.94, 114.743, 158.469, -29.5697, 114.021, -164.57, 112.072, 104.425
2, 660.00000, 2740.82, -3.71688, 2836.06, -123.479, 2798.94, 114.743, 158.469, -29.5697, 114.021, -164.57, 112.072, 104.425
2, 720.00000, 2740.82, -3.71688, 2836.06, -123.479, 2798.94, 114.743, 158.469, -29.5697, 114.021, -164.57, 112.072, 104.425
2, 780.00000, 2740.82, -3.71688, 2836.06, -123.479, 2798.94, 114.743, 158.469, -29.5697, 114.021, -164.57, 112.072, 104.425
2, 840.00000, 2740.82, -3.71688, 2836.06, -123.479, 2798.94, 114.743, 158.469, -29.5697, 114.021, -164.57, 112.072, 104.425
2, 900.00000, 2740.82, -3.71688, 2836.06, -123.479, 2798.94, 114.743, 158.469, -29.5697, 114.021, -164.57, 112.072, 104.425
2, 960.00000, 2740.82, -3.71688, 2836.06, -123.479, 2798.94, 114.743, 158.469, -29.5697, 114.021, -164.57, 112.072, 104.425
2, 1020.00000, 2740.82, -3.71688, 2836.06, -123.479, 2798.94, 114.743, 158.469, -29.5697, 114.021, -164.57, 112.072, 104.425
2, 1080.00000, 2740.82, -3.71688, 2836.06, -123.479, 2798.94, 114.743, 158.469, -29.5697, 114.021, -164.57, 112.072, 104.425
2, 1140.00000, 2740.82, -3.71688, 2836.06, -123.479, 2798.94, 114.743, 158.469, -29.5697, 114.021, -164.57, 112.072, 104.425
2, 1200.00000, 2740.82, -3.71688, 2836.06, -123.479, 2798.94, 114.743, 158.469, -29.5697, 114.021, -164.57, 112.072, 104.425
2, 1260.00000, 2740.82, -3.71688, 2836.06, -123.479, 2798.94, 114.743, 158.469, -29.5697, 114.021, -164.57, 112.072, 104.425
2, 1320.00000, 2740.82, -3.71688, 2836.06, -123.479, 2798.94, 114.743, 158.469, -29.5697, 114.021, -164.57, 112.072, 104.425
2, 1380.00000, 2740.82, -3.71688, 2836.06, -123.479, 2798.94, 114.743, 158.469, -29.5697, 114.021, -164.57, 112.072, 104.425
2, 1440.00000, 2740.82, -3.71688, 2836.06, -123.479, 2798.94, 114.743, 158.469, -29.5697, 114.021, -164.57, 112.072, 104.425
2, 1500.00000, 2740.82, -3.71688, 2836.06, -123.479, 2798.94, 114.743, 158.469, -29.5697, 114.021, -164.57, 112.072, 104.425
2, 1560.00000, 2740.82, -3.71688, 2836.06, -123.479, 2798.94, 114.743, 158.469, -29.5697, 114.021, -164.57, 112.072, 104.425
2, 1620.00000, 2740.82, -3.71688, 2836.06, -123.479, 2798.94, 114.743, 158.469, -29.5697, 114.021, -164.57, 112.072, 104.425
2, 1680.00000, 2740.82, -3.71688, 2836.06, -123.479, 2798.94, 114.743, 158.469, -29.5697, 114.021, -164.57, 112.072, 104.425
2, 1740.00000, 2740.82, -3.71688, 2836.06, -123.479, 2798.94, 114.743, 158.469, -29.5697, 114.021, -164.57, 112.072, 104.425
2, 1800.00000, 2740.82, -3.71688, 2836.06, -123.479, 2798.94, 114.743, 158.469, -29.5697, 114.021, -164.57, 112.072, 104.425
2, 1860.00000, 2752.74, -3.39611, 2834.53, -123.426, 2792.55, 115.162, 152.961, -29.2964, 109.729, -164.482, 107.816, 104.87
2, 1920.00000, 2752.71, -3.39637, 2834.52, -123.426, 2792.54, 115.161, 152.972, -29.297, 109.734, -164.482, 107.824, 104.871
2, 1980.00000, 2752.71, -3.39637, 2834.52, -123.426, 2792.54, 115.161, 152.972, -29.297, 109.734, -164.482, 107.824, 104.871
2, 2040.00000, 2752.71, -3.39637, 2834.52, -123.426, 2792.54, 115.161, 152.972, -29.297, 109.734, -164.482, 107.824, 104.871
2, 2100.00000, 2752.71, -3.39637, 2834.52, -123.426, 2792.54, 115.161, 152.972, -29.297, 109.734, -164.482, 107.824, 104.871
2, 2160.00000, 2752.71, -3.39637, 2834.52, -123.426, 2792.54, 115.161, 152.972, -29.297, 109.734, -164.482, 107.824, 104.871
2, 2220.00000, 2752.71, -3.39637, 2834.52, -123.426, 2792.54, 115.161, 152.972, -29.297, 109.734, -164.482, 107.824, 104.871
2, 2280.00000, 2752.71, -3.39637, 2834.52, -123.426, 2792.54, 115.161, 152.972, -29.297, 109.734, -164.482, 107.824, 104.871
2, 2340.00000, 2752.71, -3.39637, 2834.52, -123.426, 2792.54, 115.161, 152.972, -29.297, 109.734, -164.482, 107.824, 104.871
